T86B4 000:010.276   SEGGER J-Link V6.86 Log File
T86B4 000:010.464   DLL Compiled: Sep 24 2020 17:31:31
T86B4 000:010.482   Logging started @ 2022-05-09 07:03
T86B4 000:010.567 - 10.577ms
T86B4 000:010.609 JLINK_SetWarnOutHandler(...)
T86B4 000:010.635 - 0.034ms
T86B4 000:010.653 JLINK_OpenEx(...)
T86B4 000:013.000   Firmware: J-Link V9 compiled Jul 19 2017 16:11:45
T86B4 000:013.232   Decompressing FW timestamp took 151 us
T86B4 000:017.879   Decompressing FW took 4611 us
T86B4 000:018.108   Looking for J-Link GUI Server exe at: D:\Program Files\Keil\ARM\Segger\JLinkGUIServer.exe
T86B4 000:018.326   Looking for J-Link GUI Server exe at: D:\Program Files\Jlink\JLinkGUIServer.exe
T86B4 000:319.848   Failed to connect to J-Link GUI Server.
T86B4 001:207.496   Hardware: V9.40
T86B4 001:207.547   S/N: 59404218
T86B4 001:207.576   OEM: SEGGER
T86B4 001:207.601   Feature(s): RDI, GDB, FlashDL, FlashBP, JFlash
T86B4 001:209.630   TELNET listener socket opened on port 19021
T86B4 001:209.783   WEBSRV Starting webserver
T86B4 001:209.969   WEBSRV Webserver running on local port 19080
T86B4 001:209.999 - 1199.354ms returns "O.K."
T86B4 001:210.026 JLINK_GetEmuCaps()
T86B4 001:210.044 - 0.037ms returns 0xB9FF7BBF
T86B4 001:210.080 JLINK_TIF_GetAvailable(...)
T86B4 001:210.470 - 0.401ms
T86B4 001:210.495 JLINK_SetErrorOutHandler(...)
T86B4 001:210.513 - 0.025ms
T86B4 001:210.540 JLINK_ExecCommand("ProjectFile = "C:\Users\5099\Desktop\ASR6601-getting-started-guide-main\SDK\projects\ASR6601CB-EVAL\examples\adc\continue_mode\JLinkSettings.ini"", ...). 
T86B4 001:220.156 - 9.635ms returns 0x00
T86B4 001:224.224 JLINK_ExecCommand("Device = ARMCM4_FP", ...). 
T86B4 001:227.718   Device "CORTEX-M4" selected.
T86B4 001:228.372 - 4.128ms returns 0x00
T86B4 001:228.416 JLINK_GetHardwareVersion()
T86B4 001:228.436 - 0.029ms returns 94000
T86B4 001:228.461 JLINK_GetDLLVersion()
T86B4 001:228.489 - 0.036ms returns 68600
T86B4 001:228.508 JLINK_GetOEMString(...)
T86B4 001:228.527 JLINK_GetFirmwareString(...)
T86B4 001:228.561 - 0.043ms
T86B4 001:235.458 JLINK_GetDLLVersion()
T86B4 001:235.499 - 0.049ms returns 68600
T86B4 001:235.517 JLINK_GetCompileDateTime()
T86B4 001:235.532 - 0.023ms
T86B4 001:243.620 JLINK_GetFirmwareString(...)
T86B4 001:243.657 - 0.045ms
T86B4 001:246.598 JLINK_GetHardwareVersion()
T86B4 001:246.634 - 0.044ms returns 94000
T86B4 001:249.192 JLINK_GetSN()
T86B4 001:249.231 - 0.046ms returns 59404218
T86B4 001:254.339 JLINK_GetOEMString(...)
T86B4 001:260.089 JLINK_TIF_Select(JLINKARM_TIF_SWD)
T86B4 001:262.390 - 2.339ms returns 0x00
T86B4 001:262.444 JLINK_HasError()
T86B4 001:262.541 JLINK_SetSpeed(5000)
T86B4 001:263.065 - 0.561ms
T86B4 001:263.121 JLINK_GetId()
T86B4 001:267.553   Found SW-DP with ID 0x2BA01477
T86B4 001:271.838   Old FW that does not support reading DPIDR via DAP jobs
T86B4 001:274.961   Unknown DP version. Assuming DPv0
T86B4 001:278.154   Scanning AP map to find all available APs
T86B4 001:281.597   AP[1]: Stopped AP scan as end of AP map has been reached
T86B4 001:284.409   AP[0]: AHB-AP (IDR: 0x24770011)
T86B4 001:286.910   Iterating through AP map to find AHB-AP to use
T86B4 001:290.107   AP[0]: Core found
T86B4 001:292.077   AP[0]: AHB-AP ROM base: 0xE00FF000
T86B4 001:295.174   CPUID register: 0x410FC241. Implementer code: 0x41 (ARM)
T86B4 001:297.809   Found Cortex-M4 r0p1, Little endian.
T86B4 001:400.529   -- Max. mem block: 0x00010C98
T86B4 001:400.654   CPU_ReadMem(4 bytes @ 0xE000EDF0)
T86B4 001:402.161   CPU_WriteMem(4 bytes @ 0xE000EDF0)
T86B4 001:403.063   CPU_ReadMem(4 bytes @ 0xE0002000)
T86B4 001:406.525   FPUnit: 6 code (BP) slots and 2 literal slots
T86B4 001:406.586   CPU_ReadMem(4 bytes @ 0xE000EDFC)
T86B4 001:407.380   CPU_WriteMem(4 bytes @ 0xE000EDFC)
T86B4 001:408.070   CPU_ReadMem(4 bytes @ 0xE0001000)
T86B4 001:408.934   CPU_WriteMem(4 bytes @ 0xE0001000)
T86B4 001:409.647   CPU_ReadMem(4 bytes @ 0xE000ED88)
T86B4 001:410.464   CPU_WriteMem(4 bytes @ 0xE000ED88)
T86B4 001:411.216   CPU_ReadMem(4 bytes @ 0xE000ED88)
T86B4 001:411.939   CPU_WriteMem(4 bytes @ 0xE000ED88)
T86B4 001:414.857   CoreSight components:
T86B4 001:416.741   ROMTbl[0] @ E00FF000
T86B4 001:416.780   CPU_ReadMem(64 bytes @ 0xE00FF000)
T86B4 001:417.808   CPU_ReadMem(32 bytes @ 0xE000EFE0)
T86B4 001:420.738   ROMTbl[0][0]: E000E000, CID: B105E00D, PID: 000BB00C SCS-M7
T86B4 001:420.779   CPU_ReadMem(32 bytes @ 0xE0001FE0)
T86B4 001:423.337   ROMTbl[0][1]: E0001000, CID: B105E00D, PID: 003BB002 DWT
T86B4 001:423.380   CPU_ReadMem(32 bytes @ 0xE0002FE0)
T86B4 001:427.830   ROMTbl[0][2]: E0002000, CID: B105E00D, PID: 002BB003 FPB
T86B4 001:427.918   CPU_ReadMem(32 bytes @ 0xE0000FE0)
T86B4 001:431.344   ROMTbl[0][3]: E0000000, CID: B105E00D, PID: 003BB001 ITM
T86B4 001:431.393   CPU_ReadMem(32 bytes @ 0xE0040FE0)
T86B4 001:433.906   ROMTbl[0][4]: E0040000, CID: B105900D, PID: 000BB9A1 TPIU
T86B4 001:434.524 - 171.418ms returns 0x2BA01477
T86B4 001:434.555 JLINK_GetDLLVersion()
T86B4 001:434.570 - 0.023ms returns 68600
T86B4 001:434.587 JLINK_CORE_GetFound()
T86B4 001:434.602 - 0.022ms returns 0xE0000FF
T86B4 001:434.621 JLINK_GetDebugInfo(0x100 = JLINKARM_ROM_TABLE_ADDR_INDEX)
T86B4 001:434.637   Value=0xE00FF000
T86B4 001:434.660 - 0.047ms returns 0
T86B4 001:436.471 JLINK_GetDebugInfo(0x100 = JLINKARM_ROM_TABLE_ADDR_INDEX)
T86B4 001:436.502   Value=0xE00FF000
T86B4 001:436.524 - 0.060ms returns 0
T86B4 001:436.541 JLINK_GetDebugInfo(0x101 = JLINKARM_DEBUG_INFO_ETM_ADDR_INDEX)
T86B4 001:436.556   Value=0x00000000
T86B4 001:436.578 - 0.045ms returns 0
T86B4 001:436.600 JLINK_ReadMemEx(0xE0041FF0, 0x10 Bytes, Flags = 0x02000004)
T86B4 001:436.632   CPU_ReadMem(16 bytes @ 0xE0041FF0)
T86B4 001:437.365   Data:  00 00 00 00 00 00 00 00 00 00 00 00 00 00 00 00
T86B4 001:437.391 - 0.798ms returns 16 (0x10)
T86B4 001:437.409 JLINK_GetDebugInfo(0x102 = JLINKARM_DEBUG_INFO_MTB_ADDR_INDEX)
T86B4 001:437.425   Value=0x00000000
T86B4 001:437.447 - 0.046ms returns 0
T86B4 001:437.464 JLINK_GetDebugInfo(0x103 = JLINKARM_DEBUG_INFO_TPIU_ADDR_INDEX)
T86B4 001:437.479   Value=0xE0040000
T86B4 001:437.502 - 0.045ms returns 0
T86B4 001:437.518 JLINK_GetDebugInfo(0x104 = JLINKARM_DEBUG_INFO_ITM_ADDR_INDEX)
T86B4 001:437.534   Value=0xE0000000
T86B4 001:437.556 - 0.045ms returns 0
T86B4 001:437.572 JLINK_GetDebugInfo(0x105 = JLINKARM_DEBUG_INFO_DWT_ADDR_INDEX)
T86B4 001:437.588   Value=0xE0001000
T86B4 001:437.610 - 0.045ms returns 0
T86B4 001:437.626 JLINK_GetDebugInfo(0x106 = JLINKARM_DEBUG_INFO_FPB_ADDR_INDEX)
T86B4 001:437.642   Value=0xE0002000
T86B4 001:437.664 - 0.045ms returns 0
T86B4 001:437.680 JLINK_GetDebugInfo(0x107 = JLINKARM_DEBUG_INFO_NVIC_ADDR_INDEX)
T86B4 001:437.696   Value=0xE000E000
T86B4 001:437.719 - 0.045ms returns 0
T86B4 001:437.735 JLINK_GetDebugInfo(0x10C = JLINKARM_DEBUG_INFO_DBG_ADDR_INDEX)
T86B4 001:437.751   Value=0xE000EDF0
T86B4 001:437.773 - 0.045ms returns 0
T86B4 001:437.789 JLINK_GetDebugInfo(0x01 = Unknown)
T86B4 001:437.805   Value=0x00000001
T86B4 001:437.827 - 0.045ms returns 0
T86B4 001:437.843 JLINK_ReadMemU32(0xE000ED00, 0x1 Items)
T86B4 001:437.862   CPU_ReadMem(4 bytes @ 0xE000ED00)
T86B4 001:438.475   Data:  41 C2 0F 41
T86B4 001:438.500   Debug reg: CPUID
T86B4 001:438.522 - 0.685ms returns 1 (0x1)
T86B4 001:438.539 JLINK_GetDebugInfo(0x10F = JLINKARM_DEBUG_INFO_HAS_CORTEX_M_SECURITY_EXT_INDEX)
T86B4 001:438.555   Value=0x00000000
T86B4 001:438.577 - 0.045ms returns 0
T86B4 001:438.594 JLINK_HasError()
T86B4 001:438.612 JLINK_SetResetType(JLINKARM_CM3_RESET_TYPE_NORMAL)
T86B4 001:438.628 - 0.023ms returns JLINKARM_CM3_RESET_TYPE_NORMAL
T86B4 001:438.644 JLINK_Reset()
T86B4 001:438.669   CPU is running
T86B4 001:438.693   CPU_WriteMem(4 bytes @ 0xE000EDF0)
T86B4 001:439.392   CPU is running
T86B4 001:439.417   CPU_WriteMem(4 bytes @ 0xE000EDFC)
T86B4 001:443.460   Reset: Halt core after reset via DEMCR.VC_CORERESET.
T86B4 001:447.047   Reset: Reset device via AIRCR.SYSRESETREQ.
T86B4 001:447.101   CPU is running
T86B4 001:447.127   CPU_WriteMem(4 bytes @ 0xE000ED0C)
T86B4 001:501.057   CPU_ReadMem(4 bytes @ 0xE000EDF0)
T86B4 001:501.843   CPU_ReadMem(4 bytes @ 0xE000EDF0)
T86B4 001:502.639   CPU is running
T86B4 001:502.767   CPU_WriteMem(4 bytes @ 0xE000EDF0)
T86B4 001:503.612   CPU is running
T86B4 001:503.672   CPU_WriteMem(4 bytes @ 0xE000EDFC)
T86B4 001:510.346   CPU_ReadMem(4 bytes @ 0xE000EDF0)
T86B4 001:514.395   CPU_WriteMem(4 bytes @ 0xE0002000)
T86B4 001:515.376   CPU_ReadMem(4 bytes @ 0xE000EDFC)
T86B4 001:516.244   CPU_ReadMem(4 bytes @ 0xE0001000)
T86B4 001:517.202   CPU_WriteMem(4 bytes @ 0xE0001000)
T86B4 001:518.192 - 79.648ms
T86B4 001:518.338 JLINK_Halt()
T86B4 001:518.376 - 0.051ms returns 0x00
T86B4 001:518.407 JLINK_ReadMemU32(0xE000EDF0, 0x1 Items)
T86B4 001:518.443   CPU_ReadMem(4 bytes @ 0xE000EDF0)
T86B4 001:519.067   Data:  03 00 03 00
T86B4 001:519.124   Debug reg: DHCSR
T86B4 001:519.148 - 0.749ms returns 1 (0x1)
T86B4 001:519.307 JLINK_WriteU32_64(0xE000EDF0, 0xA05F0003)
T86B4 001:519.339   Debug reg: DHCSR
T86B4 001:519.377   CPU_WriteMem(4 bytes @ 0xE000EDF0)
T86B4 001:519.948 - 0.657ms returns 0 (0x00000000)
T86B4 001:519.977 JLINK_WriteU32_64(0xE000EDFC, 0x01000000)
T86B4 001:519.995   Debug reg: DEMCR
T86B4 001:520.024   CPU_WriteMem(4 bytes @ 0xE000EDFC)
T86B4 001:520.561 - 0.601ms returns 0 (0x00000000)
T86B4 001:529.436 JLINK_GetHWStatus(...)
T86B4 001:530.186 - 0.796ms returns 0
T86B4 001:537.842 JLINK_GetNumBPUnits(Type = 0xFFFFFF00)
T86B4 001:537.927 - 0.093ms returns 0x06
T86B4 001:537.945 JLINK_GetNumBPUnits(Type = 0xF0)
T86B4 001:537.962 - 0.025ms returns 0x2000
T86B4 001:537.980 JLINK_GetNumWPUnits()
T86B4 001:537.996 - 0.024ms returns 4
T86B4 001:544.301 JLINK_GetSpeed()
T86B4 001:544.350 - 0.058ms returns 4000
T86B4 001:548.483 JLINK_ReadMemU32(0xE000E004, 0x1 Items)
T86B4 001:548.531   CPU_ReadMem(4 bytes @ 0xE000E004)
T86B4 001:549.259   Data:  01 00 00 00
T86B4 001:549.298 - 0.851ms returns 1 (0x1)
T86B4 001:549.346 JLINK_ReadMemU32(0xE000E004, 0x1 Items)
T86B4 001:549.398   CPU_ReadMem(4 bytes @ 0xE000E004)
T86B4 001:550.172   Data:  01 00 00 00
T86B4 001:550.207 - 0.869ms returns 1 (0x1)
T86B4 001:550.243 JLINK_WriteMemEx(0xE0001000, 0x0000001C Bytes, Flags = 0x02000004)
T86B4 001:550.259   Data:  01 00 00 00 00 00 00 00 00 00 00 00 00 00 00 00 ...
T86B4 001:550.477   CPU_WriteMem(28 bytes @ 0xE0001000)
T86B4 001:551.321 - 1.119ms returns 0x1C
T86B4 001:551.379 JLINK_Halt()
T86B4 001:551.395 - 0.024ms returns 0x00
T86B4 001:551.412 JLINK_IsHalted()
T86B4 001:551.430 - 0.026ms returns TRUE
T86B4 001:554.549 JLINK_WriteMem(0x20000000, 0x10C Bytes, ...)
T86B4 001:554.576   Data:  00 BE 0A E0 0D 78 2D 06 68 40 08 24 40 00 00 D3 ...
T86B4 001:554.776   CPU_WriteMem(268 bytes @ 0x20000000)
T86B4 001:556.859 - 2.325ms returns 0x10C
T86B4 001:556.905 JLINK_HasError()
T86B4 001:556.923 JLINK_WriteReg(R0, 0x08000000)
T86B4 001:556.941 - 0.025ms returns 0
T86B4 001:556.958 JLINK_WriteReg(R1, 0x016E3600)
T86B4 001:556.974 - 0.023ms returns 0
T86B4 001:556.990 JLINK_WriteReg(R2, 0x00000001)
T86B4 001:557.006 - 0.024ms returns 0
T86B4 001:557.023 JLINK_WriteReg(R3, 0x00000000)
T86B4 001:557.039 - 0.023ms returns 0
T86B4 001:557.055 JLINK_WriteReg(R4, 0x00000000)
T86B4 001:557.070 - 0.022ms returns 0
T86B4 001:557.087 JLINK_WriteReg(R5, 0x00000000)
T86B4 001:557.102 - 0.023ms returns 0
T86B4 001:557.118 JLINK_WriteReg(R6, 0x00000000)
T86B4 001:557.134 - 0.023ms returns 0
T86B4 001:557.150 JLINK_WriteReg(R7, 0x00000000)
T86B4 001:557.166 - 0.023ms returns 0
T86B4 001:557.182 JLINK_WriteReg(R8, 0x00000000)
T86B4 001:557.203 - 0.029ms returns 0
T86B4 001:557.220 JLINK_WriteReg(R9, 0x20000108)
T86B4 001:557.236 - 0.023ms returns 0
T86B4 001:557.252 JLINK_WriteReg(R10, 0x00000000)
T86B4 001:557.268 - 0.023ms returns 0
T86B4 001:557.284 JLINK_WriteReg(R11, 0x00000000)
T86B4 001:557.300 - 0.023ms returns 0
T86B4 001:557.316 JLINK_WriteReg(R12, 0x00000000)
T86B4 001:557.331 - 0.022ms returns 0
T86B4 001:557.348 JLINK_WriteReg(R13 (SP), 0x20002000)
T86B4 001:557.364 - 0.026ms returns 0
T86B4 001:557.384 JLINK_WriteReg(R14, 0x20000001)
T86B4 001:557.400 - 0.023ms returns 0
T86B4 001:557.417 JLINK_WriteReg(R15 (PC), 0x20000038)
T86B4 001:557.434 - 0.024ms returns 0
T86B4 001:557.450 JLINK_WriteReg(XPSR, 0x01000000)
T86B4 001:557.466 - 0.023ms returns 0
T86B4 001:557.482 JLINK_WriteReg(MSP, 0x20002000)
T86B4 001:557.498 - 0.022ms returns 0
T86B4 001:557.514 JLINK_WriteReg(PSP, 0x20002000)
T86B4 001:557.530 - 0.023ms returns 0
T86B4 001:557.546 JLINK_WriteReg(CFBP, 0x00000000)
T86B4 001:557.561 - 0.023ms returns 0
T86B4 001:557.578 JLINK_SetBPEx(Addr = 0x20000000, Type = 0xFFFFFFF2)
T86B4 001:557.597   CPU_ReadMem(4 bytes @ 0x20000000)
T86B4 001:558.276   CPU_WriteMem(4 bytes @ 0x20000000)
T86B4 001:558.867   CPU_ReadMem(4 bytes @ 0x20000000)
T86B4 001:559.569   CPU_WriteMem(4 bytes @ 0x20000000)
T86B4 001:560.150   CPU_ReadMem(2 bytes @ 0x20000000)
T86B4 001:560.845 - 3.296ms returns 0x00000001
T86B4 001:560.887 JLINK_Go()
T86B4 001:560.956   CPU_WriteMem(2 bytes @ 0x20000000)
T86B4 001:561.595   CPU_ReadMem(4 bytes @ 0xE0001000)
T86B4 001:562.160   CPU_WriteMem(4 bytes @ 0xE0002008)
T86B4 001:562.194   CPU_WriteMem(4 bytes @ 0xE000200C)
T86B4 001:562.219   CPU_WriteMem(4 bytes @ 0xE0002010)
T86B4 001:562.243   CPU_WriteMem(4 bytes @ 0xE0002014)
T86B4 001:562.268   CPU_WriteMem(4 bytes @ 0xE0002018)
T86B4 001:562.293   CPU_WriteMem(4 bytes @ 0xE000201C)
T86B4 001:563.510   CPU_WriteMem(4 bytes @ 0xE0001004)
T86B4 001:566.498 - 5.634ms
T86B4 001:566.534 JLINK_IsHalted()
T86B4 001:569.037   CPU_ReadMem(2 bytes @ 0x20000000)
T86B4 001:569.526 - 3.003ms returns TRUE
T86B4 001:569.552 JLINK_ReadReg(R15 (PC))
T86B4 001:569.571 - 0.027ms returns 0x20000000
T86B4 001:569.589 JLINK_ClrBPEx(BPHandle = 0x00000001)
T86B4 001:569.606 - 0.025ms returns 0x00
T86B4 001:569.625 JLINK_ReadReg(R0)
T86B4 001:569.643 - 0.025ms returns 0x00000000
T86B4 001:569.929 JLINK_HasError()
T86B4 001:569.953 JLINK_WriteReg(R0, 0x08000000)
T86B4 001:569.972 - 0.027ms returns 0
T86B4 001:569.990 JLINK_WriteReg(R1, 0x00001000)
T86B4 001:570.007 - 0.024ms returns 0
T86B4 001:570.025 JLINK_WriteReg(R2, 0x000000FF)
T86B4 001:570.042 - 0.025ms returns 0
T86B4 001:570.060 JLINK_WriteReg(R3, 0x00000000)
T86B4 001:570.077 - 0.025ms returns 0
T86B4 001:570.095 JLINK_WriteReg(R4, 0x00000000)
T86B4 001:570.112 - 0.025ms returns 0
T86B4 001:570.130 JLINK_WriteReg(R5, 0x00000000)
T86B4 001:570.146 - 0.024ms returns 0
T86B4 001:570.164 JLINK_WriteReg(R6, 0x00000000)
T86B4 001:570.182 - 0.025ms returns 0
T86B4 001:570.200 JLINK_WriteReg(R7, 0x00000000)
T86B4 001:570.217 - 0.025ms returns 0
T86B4 001:570.234 JLINK_WriteReg(R8, 0x00000000)
T86B4 001:570.251 - 0.025ms returns 0
T86B4 001:570.269 JLINK_WriteReg(R9, 0x20000108)
T86B4 001:570.286 - 0.024ms returns 0
T86B4 001:570.304 JLINK_WriteReg(R10, 0x00000000)
T86B4 001:570.321 - 0.025ms returns 0
T86B4 001:570.339 JLINK_WriteReg(R11, 0x00000000)
T86B4 001:570.357 - 0.026ms returns 0
T86B4 001:570.375 JLINK_WriteReg(R12, 0x00000000)
T86B4 001:570.391 - 0.025ms returns 0
T86B4 001:570.409 JLINK_WriteReg(R13 (SP), 0x20002000)
T86B4 001:570.427 - 0.025ms returns 0
T86B4 001:570.444 JLINK_WriteReg(R14, 0x20000001)
T86B4 001:570.462 - 0.025ms returns 0
T86B4 001:570.479 JLINK_WriteReg(R15 (PC), 0x20000020)
T86B4 001:570.497 - 0.025ms returns 0
T86B4 001:570.514 JLINK_WriteReg(XPSR, 0x01000000)
T86B4 001:570.531 - 0.025ms returns 0
T86B4 001:570.549 JLINK_WriteReg(MSP, 0x20002000)
T86B4 001:570.566 - 0.024ms returns 0
T86B4 001:570.583 JLINK_WriteReg(PSP, 0x20002000)
T86B4 001:570.600 - 0.025ms returns 0
T86B4 001:570.618 JLINK_WriteReg(CFBP, 0x00000000)
T86B4 001:570.635 - 0.025ms returns 0
T86B4 001:570.653 JLINK_SetBPEx(Addr = 0x20000000, Type = 0xFFFFFFF2)
T86B4 001:570.671 - 0.026ms returns 0x00000002
T86B4 001:570.689 JLINK_Go()
T86B4 001:570.711   CPU_ReadMem(4 bytes @ 0xE0001000)
T86B4 001:573.631 - 2.960ms
T86B4 001:573.662 JLINK_IsHalted()
T86B4 001:574.203 - 0.557ms returns FALSE
T86B4 001:574.231 JLINK_HasError()
T86B4 001:733.058 JLINK_IsHalted()
T86B4 001:735.963   CPU_ReadMem(2 bytes @ 0x20000000)
T86B4 001:736.528 - 3.481ms returns TRUE
T86B4 001:736.552 JLINK_ReadReg(R15 (PC))
T86B4 001:736.573 - 0.028ms returns 0x20000000
T86B4 001:736.591 JLINK_ClrBPEx(BPHandle = 0x00000002)
T86B4 001:736.609 - 0.026ms returns 0x00
T86B4 001:736.628 JLINK_ReadReg(R0)
T86B4 001:736.645 - 0.025ms returns 0x00000000
T86B4 001:737.261 JLINK_HasError()
T86B4 001:737.287 JLINK_WriteReg(R0, 0x08001000)
T86B4 001:737.305 - 0.025ms returns 0
T86B4 001:737.322 JLINK_WriteReg(R1, 0x00001000)
T86B4 001:737.338 - 0.023ms returns 0
T86B4 001:737.354 JLINK_WriteReg(R2, 0x000000FF)
T86B4 001:737.370 - 0.023ms returns 0
T86B4 001:737.386 JLINK_WriteReg(R3, 0x00000000)
T86B4 001:737.401 - 0.022ms returns 0
T86B4 001:737.418 JLINK_WriteReg(R4, 0x00000000)
T86B4 001:737.434 - 0.022ms returns 0
T86B4 001:737.449 JLINK_WriteReg(R5, 0x00000000)
T86B4 001:737.465 - 0.023ms returns 0
T86B4 001:737.482 JLINK_WriteReg(R6, 0x00000000)
T86B4 001:737.497 - 0.023ms returns 0
T86B4 001:737.514 JLINK_WriteReg(R7, 0x00000000)
T86B4 001:737.529 - 0.022ms returns 0
T86B4 001:737.545 JLINK_WriteReg(R8, 0x00000000)
T86B4 001:737.561 - 0.023ms returns 0
T86B4 001:737.577 JLINK_WriteReg(R9, 0x20000108)
T86B4 001:737.593 - 0.023ms returns 0
T86B4 001:737.609 JLINK_WriteReg(R10, 0x00000000)
T86B4 001:737.625 - 0.023ms returns 0
T86B4 001:737.641 JLINK_WriteReg(R11, 0x00000000)
T86B4 001:737.656 - 0.023ms returns 0
T86B4 001:737.673 JLINK_WriteReg(R12, 0x00000000)
T86B4 001:737.688 - 0.023ms returns 0
T86B4 001:737.705 JLINK_WriteReg(R13 (SP), 0x20002000)
T86B4 001:737.721 - 0.024ms returns 0
T86B4 001:737.738 JLINK_WriteReg(R14, 0x20000001)
T86B4 001:737.754 - 0.023ms returns 0
T86B4 001:737.770 JLINK_WriteReg(R15 (PC), 0x20000020)
T86B4 001:737.785 - 0.023ms returns 0
T86B4 001:737.802 JLINK_WriteReg(XPSR, 0x01000000)
T86B4 001:737.818 - 0.023ms returns 0
T86B4 001:737.833 JLINK_WriteReg(MSP, 0x20002000)
T86B4 001:737.849 - 0.023ms returns 0
T86B4 001:737.866 JLINK_WriteReg(PSP, 0x20002000)
T86B4 001:737.916 - 0.058ms returns 0
T86B4 001:737.933 JLINK_WriteReg(CFBP, 0x00000000)
T86B4 001:737.950 - 0.025ms returns 0
T86B4 001:737.969 JLINK_SetBPEx(Addr = 0x20000000, Type = 0xFFFFFFF2)
T86B4 001:737.986 - 0.025ms returns 0x00000003
T86B4 001:738.004 JLINK_Go()
T86B4 001:738.053   CPU_ReadMem(4 bytes @ 0xE0001000)
T86B4 001:741.729 - 3.767ms
T86B4 001:741.782 JLINK_IsHalted()
T86B4 001:744.462   CPU_ReadMem(2 bytes @ 0x20000000)
T86B4 001:745.006 - 3.234ms returns TRUE
T86B4 001:745.030 JLINK_ReadReg(R15 (PC))
T86B4 001:745.050 - 0.028ms returns 0x20000000
T86B4 001:745.069 JLINK_ClrBPEx(BPHandle = 0x00000003)
T86B4 001:745.086 - 0.026ms returns 0x00
T86B4 001:745.105 JLINK_ReadReg(R0)
T86B4 001:745.123 - 0.026ms returns 0x00000001
T86B4 001:745.142 JLINK_HasError()
T86B4 001:745.161 JLINK_WriteReg(R0, 0x08001000)
T86B4 001:745.178 - 0.026ms returns 0
T86B4 001:745.196 JLINK_WriteReg(R1, 0x00001000)
T86B4 001:745.214 - 0.026ms returns 0
T86B4 001:745.232 JLINK_WriteReg(R2, 0x000000FF)
T86B4 001:745.249 - 0.026ms returns 0
T86B4 001:745.267 JLINK_WriteReg(R3, 0x00000000)
T86B4 001:745.284 - 0.024ms returns 0
T86B4 001:745.302 JLINK_WriteReg(R4, 0x00000000)
T86B4 001:745.319 - 0.025ms returns 0
T86B4 001:745.337 JLINK_WriteReg(R5, 0x00000000)
T86B4 001:745.354 - 0.025ms returns 0
T86B4 001:745.372 JLINK_WriteReg(R6, 0x00000000)
T86B4 001:745.389 - 0.025ms returns 0
T86B4 001:745.407 JLINK_WriteReg(R7, 0x00000000)
T86B4 001:745.424 - 0.024ms returns 0
T86B4 001:745.442 JLINK_WriteReg(R8, 0x00000000)
T86B4 001:745.459 - 0.025ms returns 0
T86B4 001:745.477 JLINK_WriteReg(R9, 0x20000108)
T86B4 001:745.494 - 0.025ms returns 0
T86B4 001:745.511 JLINK_WriteReg(R10, 0x00000000)
T86B4 001:745.529 - 0.026ms returns 0
T86B4 001:745.547 JLINK_WriteReg(R11, 0x00000000)
T86B4 001:745.564 - 0.024ms returns 0
T86B4 001:745.582 JLINK_WriteReg(R12, 0x00000000)
T86B4 001:745.599 - 0.025ms returns 0
T86B4 001:745.621 JLINK_WriteReg(R13 (SP), 0x20002000)
T86B4 001:745.641 - 0.028ms returns 0
T86B4 001:745.659 JLINK_WriteReg(R14, 0x20000001)
T86B4 001:745.676 - 0.025ms returns 0
T86B4 001:745.694 JLINK_WriteReg(R15 (PC), 0x2000003C)
T86B4 001:745.711 - 0.024ms returns 0
T86B4 001:745.729 JLINK_WriteReg(XPSR, 0x01000000)
T86B4 001:745.746 - 0.025ms returns 0
T86B4 001:745.763 JLINK_WriteReg(MSP, 0x20002000)
T86B4 001:745.781 - 0.025ms returns 0
T86B4 001:745.798 JLINK_WriteReg(PSP, 0x20002000)
T86B4 001:745.815 - 0.025ms returns 0
T86B4 001:745.833 JLINK_WriteReg(CFBP, 0x00000000)
T86B4 001:745.860 - 0.039ms returns 0
T86B4 001:745.887 JLINK_SetBPEx(Addr = 0x20000000, Type = 0xFFFFFFF2)
T86B4 001:745.910 - 0.033ms returns 0x00000004
T86B4 001:745.932 JLINK_Go()
T86B4 001:745.960   CPU_ReadMem(4 bytes @ 0xE0001000)
T86B4 001:748.624 - 2.709ms
T86B4 001:748.653 JLINK_IsHalted()
T86B4 001:749.127 - 0.484ms returns FALSE
T86B4 001:749.150 JLINK_HasError()
T86B4 001:763.273 JLINK_IsHalted()
T86B4 001:763.953 - 0.694ms returns FALSE
T86B4 001:763.979 JLINK_HasError()
T86B4 001:765.281 JLINK_IsHalted()
T86B4 001:765.879 - 0.610ms returns FALSE
T86B4 001:765.903 JLINK_HasError()
T86B4 001:767.739 JLINK_IsHalted()
T86B4 001:768.365 - 0.637ms returns FALSE
T86B4 001:768.387 JLINK_HasError()
T86B4 001:769.762 JLINK_IsHalted()
T86B4 001:770.254 - 0.520ms returns FALSE
T86B4 001:770.275 JLINK_HasError()
T86B4 001:771.763 JLINK_IsHalted()
T86B4 001:772.288 - 0.539ms returns FALSE
T86B4 001:772.313 JLINK_HasError()
T86B4 001:773.718 JLINK_IsHalted()
T86B4 001:774.227 - 0.519ms returns FALSE
T86B4 001:774.247 JLINK_HasError()
T86B4 001:775.661 JLINK_IsHalted()
T86B4 001:776.304 - 0.693ms returns FALSE
T86B4 001:776.366 JLINK_HasError()
T86B4 001:777.746 JLINK_IsHalted()
T86B4 001:778.461 - 0.727ms returns FALSE
T86B4 001:778.485 JLINK_HasError()
T86B4 001:779.759 JLINK_IsHalted()
T86B4 001:780.454 - 0.705ms returns FALSE
T86B4 001:780.501 JLINK_HasError()
T86B4 001:781.699 JLINK_IsHalted()
T86B4 001:784.265   CPU_ReadMem(2 bytes @ 0x20000000)
T86B4 001:784.774 - 3.092ms returns TRUE
T86B4 001:784.804 JLINK_ReadReg(R15 (PC))
T86B4 001:784.823 - 0.027ms returns 0x20000000
T86B4 001:784.841 JLINK_ClrBPEx(BPHandle = 0x00000004)
T86B4 001:784.859 - 0.025ms returns 0x00
T86B4 001:784.877 JLINK_ReadReg(R0)
T86B4 001:784.894 - 0.025ms returns 0x00000000
T86B4 001:785.321 JLINK_HasError()
T86B4 001:785.348 JLINK_WriteReg(R0, 0x00000001)
T86B4 001:785.367 - 0.028ms returns 0
T86B4 001:785.386 JLINK_WriteReg(R1, 0x00001000)
T86B4 001:785.402 - 0.024ms returns 0
T86B4 001:785.420 JLINK_WriteReg(R2, 0x000000FF)
T86B4 001:785.438 - 0.025ms returns 0
T86B4 001:785.456 JLINK_WriteReg(R3, 0x00000000)
T86B4 001:785.473 - 0.025ms returns 0
T86B4 001:785.491 JLINK_WriteReg(R4, 0x00000000)
T86B4 001:785.508 - 0.025ms returns 0
T86B4 001:785.526 JLINK_WriteReg(R5, 0x00000000)
T86B4 001:785.543 - 0.025ms returns 0
T86B4 001:785.561 JLINK_WriteReg(R6, 0x00000000)
T86B4 001:785.578 - 0.025ms returns 0
T86B4 001:785.596 JLINK_WriteReg(R7, 0x00000000)
T86B4 001:785.613 - 0.025ms returns 0
T86B4 001:785.631 JLINK_WriteReg(R8, 0x00000000)
T86B4 001:785.647 - 0.025ms returns 0
T86B4 001:785.666 JLINK_WriteReg(R9, 0x20000108)
T86B4 001:785.682 - 0.024ms returns 0
T86B4 001:785.700 JLINK_WriteReg(R10, 0x00000000)
T86B4 001:785.717 - 0.025ms returns 0
T86B4 001:785.735 JLINK_WriteReg(R11, 0x00000000)
T86B4 001:785.752 - 0.032ms returns 0
T86B4 001:785.778 JLINK_WriteReg(R12, 0x00000000)
T86B4 001:785.796 - 0.025ms returns 0
T86B4 001:785.814 JLINK_WriteReg(R13 (SP), 0x20002000)
T86B4 001:785.831 - 0.025ms returns 0
T86B4 001:785.849 JLINK_WriteReg(R14, 0x20000001)
T86B4 001:785.866 - 0.025ms returns 0
T86B4 001:785.883 JLINK_WriteReg(R15 (PC), 0x200000F4)
T86B4 001:785.901 - 0.025ms returns 0
T86B4 001:785.919 JLINK_WriteReg(XPSR, 0x01000000)
T86B4 001:785.936 - 0.025ms returns 0
T86B4 001:785.953 JLINK_WriteReg(MSP, 0x20002000)
T86B4 001:785.970 - 0.025ms returns 0
T86B4 001:785.991 JLINK_WriteReg(PSP, 0x20002000)
T86B4 001:786.011 - 0.027ms returns 0
T86B4 001:786.028 JLINK_WriteReg(CFBP, 0x00000000)
T86B4 001:786.045 - 0.025ms returns 0
T86B4 001:786.064 JLINK_SetBPEx(Addr = 0x20000000, Type = 0xFFFFFFF2)
T86B4 001:786.082 - 0.026ms returns 0x00000005
T86B4 001:786.099 JLINK_Go()
T86B4 001:786.122   CPU_ReadMem(4 bytes @ 0xE0001000)
T86B4 001:788.852 - 2.764ms
T86B4 001:788.875 JLINK_IsHalted()
T86B4 001:791.162   CPU_ReadMem(2 bytes @ 0x20000000)
T86B4 001:791.681 - 2.815ms returns TRUE
T86B4 001:791.701 JLINK_ReadReg(R15 (PC))
T86B4 001:791.719 - 0.026ms returns 0x20000000
T86B4 001:791.738 JLINK_ClrBPEx(BPHandle = 0x00000005)
T86B4 001:791.756 - 0.026ms returns 0x00
T86B4 001:791.774 JLINK_ReadReg(R0)
T86B4 001:791.791 - 0.025ms returns 0x00000000
T86B4 001:853.583 JLINK_WriteMem(0x20000000, 0x10C Bytes, ...)
T86B4 001:853.615   Data:  00 BE 0A E0 0D 78 2D 06 68 40 08 24 40 00 00 D3 ...
T86B4 001:853.652   CPU_WriteMem(268 bytes @ 0x20000000)
T86B4 001:855.568 - 2.026ms returns 0x10C
T86B4 001:855.679 JLINK_HasError()
T86B4 001:855.730 JLINK_WriteReg(R0, 0x08000000)
T86B4 001:855.778 - 0.067ms returns 0
T86B4 001:855.821 JLINK_WriteReg(R1, 0x016E3600)
T86B4 001:855.862 - 0.060ms returns 0
T86B4 001:855.903 JLINK_WriteReg(R2, 0x00000002)
T86B4 001:855.942 - 0.059ms returns 0
T86B4 001:855.985 JLINK_WriteReg(R3, 0x00000000)
T86B4 001:856.026 - 0.078ms returns 0
T86B4 001:856.072 JLINK_WriteReg(R4, 0x00000000)
T86B4 001:856.088 - 0.023ms returns 0
T86B4 001:856.104 JLINK_WriteReg(R5, 0x00000000)
T86B4 001:856.121 - 0.024ms returns 0
T86B4 001:856.137 JLINK_WriteReg(R6, 0x00000000)
T86B4 001:856.152 - 0.022ms returns 0
T86B4 001:856.169 JLINK_WriteReg(R7, 0x00000000)
T86B4 001:856.185 - 0.023ms returns 0
T86B4 001:856.201 JLINK_WriteReg(R8, 0x00000000)
T86B4 001:856.217 - 0.023ms returns 0
T86B4 001:856.234 JLINK_WriteReg(R9, 0x20000108)
T86B4 001:856.249 - 0.023ms returns 0
T86B4 001:856.266 JLINK_WriteReg(R10, 0x00000000)
T86B4 001:856.281 - 0.023ms returns 0
T86B4 001:856.297 JLINK_WriteReg(R11, 0x00000000)
T86B4 001:856.313 - 0.023ms returns 0
T86B4 001:856.329 JLINK_WriteReg(R12, 0x00000000)
T86B4 001:856.345 - 0.023ms returns 0
T86B4 001:856.361 JLINK_WriteReg(R13 (SP), 0x20002000)
T86B4 001:856.378 - 0.024ms returns 0
T86B4 001:856.395 JLINK_WriteReg(R14, 0x20000001)
T86B4 001:856.410 - 0.023ms returns 0
T86B4 001:856.427 JLINK_WriteReg(R15 (PC), 0x20000038)
T86B4 001:856.443 - 0.023ms returns 0
T86B4 001:856.459 JLINK_WriteReg(XPSR, 0x01000000)
T86B4 001:856.475 - 0.023ms returns 0
T86B4 001:856.491 JLINK_WriteReg(MSP, 0x20002000)
T86B4 001:856.507 - 0.023ms returns 0
T86B4 001:856.523 JLINK_WriteReg(PSP, 0x20002000)
T86B4 001:856.538 - 0.023ms returns 0
T86B4 001:856.555 JLINK_WriteReg(CFBP, 0x00000000)
T86B4 001:856.571 - 0.023ms returns 0
T86B4 001:856.587 JLINK_SetBPEx(Addr = 0x20000000, Type = 0xFFFFFFF2)
T86B4 001:856.607   CPU_ReadMem(4 bytes @ 0x20000000)
T86B4 001:857.404   CPU_WriteMem(4 bytes @ 0x20000000)
T86B4 001:858.209   CPU_ReadMem(4 bytes @ 0x20000000)
T86B4 001:859.062   CPU_WriteMem(4 bytes @ 0x20000000)
T86B4 001:859.765   CPU_ReadMem(2 bytes @ 0x20000000)
T86B4 001:860.503 - 3.952ms returns 0x00000006
T86B4 001:860.599 JLINK_Go()
T86B4 001:860.675   CPU_WriteMem(2 bytes @ 0x20000000)
T86B4 001:861.439   CPU_ReadMem(4 bytes @ 0xE0001000)
T86B4 001:864.220 - 3.640ms
T86B4 001:864.251 JLINK_IsHalted()
T86B4 001:866.871   CPU_ReadMem(2 bytes @ 0x20000000)
T86B4 001:867.398 - 3.156ms returns TRUE
T86B4 001:867.419 JLINK_ReadReg(R15 (PC))
T86B4 001:867.437 - 0.026ms returns 0x20000000
T86B4 001:867.454 JLINK_ClrBPEx(BPHandle = 0x00000006)
T86B4 001:867.470 - 0.023ms returns 0x00
T86B4 001:867.488 JLINK_ReadReg(R0)
T86B4 001:867.504 - 0.023ms returns 0x00000000
T86B4 001:867.806 JLINK_WriteMem(0x2000010C, 0x2F4 Bytes, ...)
T86B4 001:867.828   Data:  00 40 00 20 7D 01 00 08 B3 0B 00 08 B5 0B 00 08 ...
T86B4 001:867.859   CPU_WriteMem(756 bytes @ 0x2000010C)
T86B4 001:871.091 - 3.306ms returns 0x2F4
T86B4 001:871.128 JLINK_WriteMem(0x20000400, 0x400 Bytes, ...)
T86B4 001:871.144   Data:  19 5A 1B 68 9F ED 18 6A 9F ED 18 7A 10 B5 F7 EE ...
T86B4 001:871.178   CPU_WriteMem(1024 bytes @ 0x20000400)
T86B4 001:875.363 - 4.295ms returns 0x400
T86B4 001:875.460 JLINK_WriteMem(0x20000800, 0x400 Bytes, ...)
T86B4 001:875.516   Data:  11 B1 42 F4 80 42 B1 E7 22 F4 80 42 AE E7 4F F0 ...
T86B4 001:875.634   CPU_WriteMem(1024 bytes @ 0x20000800)
T86B4 001:880.016 - 4.628ms returns 0x400
T86B4 001:880.128 JLINK_WriteMem(0x20000C00, 0x400 Bytes, ...)
T86B4 001:880.173   Data:  FF F7 F4 FB 01 36 64 2E 27 F8 02 0B EA D1 00 20 ...
T86B4 001:880.258   CPU_WriteMem(1024 bytes @ 0x20000C00)
T86B4 001:884.752 - 4.678ms returns 0x400
T86B4 001:884.846 JLINK_WriteMem(0x20001000, 0x10C Bytes, ...)
T86B4 001:884.904   Data:  00 00 00 00 00 00 00 00 00 00 00 00 00 00 00 00 ...
T86B4 001:884.995   CPU_WriteMem(268 bytes @ 0x20001000)
T86B4 001:886.909 - 2.112ms returns 0x10C
T86B4 001:887.002 JLINK_HasError()
T86B4 001:887.132 JLINK_WriteReg(R0, 0x08000000)
T86B4 001:887.191 - 0.081ms returns 0
T86B4 001:887.239 JLINK_WriteReg(R1, 0x00001000)
T86B4 001:887.281 - 0.063ms returns 0
T86B4 001:887.327 JLINK_WriteReg(R2, 0x2000010C)
T86B4 001:887.371 - 0.064ms returns 0
T86B4 001:887.416 JLINK_WriteReg(R3, 0x00000000)
T86B4 001:887.460 - 0.072ms returns 0
T86B4 001:887.512 JLINK_WriteReg(R4, 0x00000000)
T86B4 001:887.555 - 0.065ms returns 0
T86B4 001:887.602 JLINK_WriteReg(R5, 0x00000000)
T86B4 001:887.648 - 0.068ms returns 0
T86B4 001:887.695 JLINK_WriteReg(R6, 0x00000000)
T86B4 001:887.737 - 0.063ms returns 0
T86B4 001:887.781 JLINK_WriteReg(R7, 0x00000000)
T86B4 001:887.839 - 0.071ms returns 0
T86B4 001:887.869 JLINK_WriteReg(R8, 0x00000000)
T86B4 001:887.897 - 0.042ms returns 0
T86B4 001:887.926 JLINK_WriteReg(R9, 0x20000108)
T86B4 001:887.953 - 0.041ms returns 0
T86B4 001:887.984 JLINK_WriteReg(R10, 0x00000000)
T86B4 001:888.012 - 0.041ms returns 0
T86B4 001:888.041 JLINK_WriteReg(R11, 0x00000000)
T86B4 001:888.069 - 0.041ms returns 0
T86B4 001:888.098 JLINK_WriteReg(R12, 0x00000000)
T86B4 001:888.127 - 0.042ms returns 0
T86B4 001:888.156 JLINK_WriteReg(R13 (SP), 0x20002000)
T86B4 001:888.185 - 0.043ms returns 0
T86B4 001:888.215 JLINK_WriteReg(R14, 0x20000001)
T86B4 001:888.244 - 0.041ms returns 0
T86B4 001:888.272 JLINK_WriteReg(R15 (PC), 0x20000092)
T86B4 001:888.301 - 0.042ms returns 0
T86B4 001:888.331 JLINK_WriteReg(XPSR, 0x01000000)
T86B4 001:888.359 - 0.042ms returns 0
T86B4 001:888.388 JLINK_WriteReg(MSP, 0x20002000)
T86B4 001:888.415 - 0.041ms returns 0
T86B4 001:888.445 JLINK_WriteReg(PSP, 0x20002000)
T86B4 001:888.474 - 0.041ms returns 0
T86B4 001:888.502 JLINK_WriteReg(CFBP, 0x00000000)
T86B4 001:888.531 - 0.042ms returns 0
T86B4 001:888.560 JLINK_SetBPEx(Addr = 0x20000000, Type = 0xFFFFFFF2)
T86B4 001:888.591 - 0.044ms returns 0x00000007
T86B4 001:888.622 JLINK_Go()
T86B4 001:888.669   CPU_ReadMem(4 bytes @ 0xE0001000)
T86B4 001:892.175 - 3.614ms
T86B4 001:892.288 JLINK_IsHalted()
T86B4 001:893.030 - 0.811ms returns FALSE
T86B4 001:893.145 JLINK_HasError()
T86B4 001:902.789 JLINK_IsHalted()
T86B4 001:903.666 - 0.894ms returns FALSE
T86B4 001:903.695 JLINK_HasError()
T86B4 001:904.767 JLINK_IsHalted()
T86B4 001:905.511 - 0.759ms returns FALSE
T86B4 001:905.537 JLINK_HasError()
T86B4 001:906.828 JLINK_IsHalted()
T86B4 001:907.616 - 0.809ms returns FALSE
T86B4 001:907.651 JLINK_HasError()
T86B4 001:912.181 JLINK_IsHalted()
T86B4 001:913.149 - 1.000ms returns FALSE
T86B4 001:913.201 JLINK_HasError()
T86B4 001:915.184 JLINK_IsHalted()
T86B4 001:916.060 - 0.921ms returns FALSE
T86B4 001:916.127 JLINK_HasError()
T86B4 001:918.279 JLINK_IsHalted()
T86B4 001:919.177 - 0.940ms returns FALSE
T86B4 001:919.250 JLINK_HasError()
T86B4 001:921.196 JLINK_IsHalted()
T86B4 001:922.092 - 0.945ms returns FALSE
T86B4 001:922.180 JLINK_HasError()
T86B4 001:924.131 JLINK_IsHalted()
T86B4 001:925.014 - 0.919ms returns FALSE
T86B4 001:925.083 JLINK_HasError()
T86B4 001:927.200 JLINK_IsHalted()
T86B4 001:928.145 - 1.008ms returns FALSE
T86B4 001:928.243 JLINK_HasError()
T86B4 001:930.229 JLINK_IsHalted()
T86B4 001:931.108 - 0.937ms returns FALSE
T86B4 001:931.212 JLINK_HasError()
T86B4 001:933.145 JLINK_IsHalted()
T86B4 001:934.003 - 0.949ms returns FALSE
T86B4 001:934.125 JLINK_HasError()
T86B4 001:936.067 JLINK_IsHalted()
T86B4 001:936.829 - 0.799ms returns FALSE
T86B4 001:936.894 JLINK_HasError()
T86B4 001:938.139 JLINK_IsHalted()
T86B4 001:938.823 - 0.716ms returns FALSE
T86B4 001:938.872 JLINK_HasError()
T86B4 001:940.070 JLINK_IsHalted()
T86B4 001:940.735 - 0.680ms returns FALSE
T86B4 001:940.761 JLINK_HasError()
T86B4 001:942.001 JLINK_IsHalted()
T86B4 001:942.606 - 0.622ms returns FALSE
T86B4 001:942.637 JLINK_HasError()
T86B4 001:944.134 JLINK_IsHalted()
T86B4 001:944.923 - 0.804ms returns FALSE
T86B4 001:944.950 JLINK_HasError()
T86B4 001:946.080 JLINK_IsHalted()
T86B4 001:946.762 - 0.698ms returns FALSE
T86B4 001:946.791 JLINK_HasError()
T86B4 001:948.096 JLINK_IsHalted()
T86B4 001:948.679 - 0.599ms returns FALSE
T86B4 001:948.708 JLINK_HasError()
T86B4 001:950.056 JLINK_IsHalted()
T86B4 001:950.721 - 0.704ms returns FALSE
T86B4 001:950.790 JLINK_HasError()
T86B4 001:952.077 JLINK_IsHalted()
T86B4 001:954.657   CPU_ReadMem(2 bytes @ 0x20000000)
T86B4 001:955.324 - 3.286ms returns TRUE
T86B4 001:955.393 JLINK_ReadReg(R15 (PC))
T86B4 001:955.443 - 0.071ms returns 0x20000000
T86B4 001:955.489 JLINK_ClrBPEx(BPHandle = 0x00000007)
T86B4 001:955.531 - 0.063ms returns 0x00
T86B4 001:955.577 JLINK_ReadReg(R0)
T86B4 001:955.621 - 0.062ms returns 0x00000000
T86B4 001:956.355 JLINK_WriteMem(0x2000010C, 0x2F4 Bytes, ...)
T86B4 001:956.381   Data:  00 00 00 00 00 00 00 00 00 00 00 00 00 00 00 00 ...
T86B4 001:956.416   CPU_WriteMem(756 bytes @ 0x2000010C)
T86B4 001:959.799 - 3.470ms returns 0x2F4
T86B4 001:959.839 JLINK_WriteMem(0x20000400, 0x400 Bytes, ...)
T86B4 001:959.856   Data:  FF FF FF FF FF FF FF FF FF FF FF FF FF FF FF FF ...
T86B4 001:959.887   CPU_WriteMem(1024 bytes @ 0x20000400)
T86B4 001:964.331 - 4.548ms returns 0x400
T86B4 001:964.421 JLINK_WriteMem(0x20000800, 0x400 Bytes, ...)
T86B4 001:964.472   Data:  FF FF FF FF FF FF FF FF FF FF FF FF FF FF FF FF ...
T86B4 001:964.562   CPU_WriteMem(1024 bytes @ 0x20000800)
T86B4 001:969.099 - 4.739ms returns 0x400
T86B4 001:969.203 JLINK_WriteMem(0x20000C00, 0x400 Bytes, ...)
T86B4 001:969.263   Data:  FF FF FF FF FF FF FF FF FF FF FF FF FF FF FF FF ...
T86B4 001:969.348   CPU_WriteMem(1024 bytes @ 0x20000C00)
T86B4 001:973.648 - 4.485ms returns 0x400
T86B4 001:973.708 JLINK_WriteMem(0x20001000, 0x10C Bytes, ...)
T86B4 001:973.726   Data:  FF FF FF FF FF FF FF FF FF FF FF FF FF FF FF FF ...
T86B4 001:973.762   CPU_WriteMem(268 bytes @ 0x20001000)
T86B4 001:975.653 - 1.995ms returns 0x10C
T86B4 001:975.732 JLINK_HasError()
T86B4 001:975.789 JLINK_WriteReg(R0, 0x08001000)
T86B4 001:975.875 - 0.106ms returns 0
T86B4 001:975.918 JLINK_WriteReg(R1, 0x00000140)
T86B4 001:976.005 - 0.114ms returns 0
T86B4 001:976.065 JLINK_WriteReg(R2, 0x2000010C)
T86B4 001:976.114 - 0.071ms returns 0
T86B4 001:976.177 JLINK_WriteReg(R3, 0x00000000)
T86B4 001:976.237 - 0.077ms returns 0
T86B4 001:976.299 JLINK_WriteReg(R4, 0x00000000)
T86B4 001:976.322 - 0.034ms returns 0
T86B4 001:976.348 JLINK_WriteReg(R5, 0x00000000)
T86B4 001:976.368 - 0.028ms returns 0
T86B4 001:976.386 JLINK_WriteReg(R6, 0x00000000)
T86B4 001:976.407 - 0.029ms returns 0
T86B4 001:976.425 JLINK_WriteReg(R7, 0x00000000)
T86B4 001:976.443 - 0.026ms returns 0
T86B4 001:976.460 JLINK_WriteReg(R8, 0x00000000)
T86B4 001:976.505 - 0.053ms returns 0
T86B4 001:976.642 JLINK_WriteReg(R9, 0x20000108)
T86B4 001:976.679 - 0.044ms returns 0
T86B4 001:976.697 JLINK_WriteReg(R10, 0x00000000)
T86B4 001:976.713 - 0.022ms returns 0
T86B4 001:976.729 JLINK_WriteReg(R11, 0x00000000)
T86B4 001:976.745 - 0.023ms returns 0
T86B4 001:976.761 JLINK_WriteReg(R12, 0x00000000)
T86B4 001:976.777 - 0.029ms returns 0
T86B4 001:976.802 JLINK_WriteReg(R13 (SP), 0x20002000)
T86B4 001:976.834 - 0.039ms returns 0
T86B4 001:976.851 JLINK_WriteReg(R14, 0x20000001)
T86B4 001:976.866 - 0.022ms returns 0
T86B4 001:976.883 JLINK_WriteReg(R15 (PC), 0x20000092)
T86B4 001:976.899 - 0.023ms returns 0
T86B4 001:976.915 JLINK_WriteReg(XPSR, 0x01000000)
T86B4 001:976.934 - 0.026ms returns 0
T86B4 001:976.982 JLINK_WriteReg(MSP, 0x20002000)
T86B4 001:977.028 - 0.053ms returns 0
T86B4 001:977.045 JLINK_WriteReg(PSP, 0x20002000)
T86B4 001:977.061 - 0.022ms returns 0
T86B4 001:977.077 JLINK_WriteReg(CFBP, 0x00000000)
T86B4 001:977.093 - 0.023ms returns 0
T86B4 001:977.110 JLINK_SetBPEx(Addr = 0x20000000, Type = 0xFFFFFFF2)
T86B4 001:977.131 - 0.029ms returns 0x00000008
T86B4 001:977.148 JLINK_Go()
T86B4 001:977.173   CPU_ReadMem(4 bytes @ 0xE0001000)
T86B4 001:980.849 - 3.717ms
T86B4 001:980.877 JLINK_IsHalted()
T86B4 001:981.605 - 0.744ms returns FALSE
T86B4 001:981.633 JLINK_HasError()
T86B4 001:983.370 JLINK_IsHalted()
T86B4 001:984.424 - 1.081ms returns FALSE
T86B4 001:984.467 JLINK_HasError()
T86B4 001:986.628 JLINK_IsHalted()
T86B4 001:987.172 - 0.560ms returns FALSE
T86B4 001:987.200 JLINK_HasError()
T86B4 001:989.229 JLINK_IsHalted()
T86B4 001:990.149 - 0.936ms returns FALSE
T86B4 001:990.177 JLINK_HasError()
T86B4 001:991.294 JLINK_IsHalted()
T86B4 001:992.065 - 0.805ms returns FALSE
T86B4 001:992.118 JLINK_HasError()
T86B4 001:993.294 JLINK_IsHalted()
T86B4 001:994.039 - 0.760ms returns FALSE
T86B4 001:994.067 JLINK_HasError()
T86B4 001:995.294 JLINK_IsHalted()
T86B4 001:996.121 - 0.873ms returns FALSE
T86B4 001:996.182 JLINK_HasError()
T86B4 001:997.361 JLINK_IsHalted()
T86B4 001:998.123 - 0.784ms returns FALSE
T86B4 001:998.159 JLINK_HasError()
T86B4 001:999.339 JLINK_IsHalted()
T86B4 002:000.139 - 0.828ms returns FALSE
T86B4 002:000.200 JLINK_HasError()
T86B4 002:002.675 JLINK_IsHalted()
T86B4 002:003.509 - 0.908ms returns FALSE
T86B4 002:003.616 JLINK_HasError()
T86B4 002:005.632 JLINK_IsHalted()
T86B4 002:006.617 - 1.017ms returns FALSE
T86B4 002:006.673 JLINK_HasError()
T86B4 002:008.681 JLINK_IsHalted()
T86B4 002:009.485 - 0.838ms returns FALSE
T86B4 002:009.543 JLINK_HasError()
T86B4 002:011.608 JLINK_IsHalted()
T86B4 002:012.514 - 0.954ms returns FALSE
T86B4 002:012.588 JLINK_HasError()
T86B4 002:014.632 JLINK_IsHalted()
T86B4 002:015.663 - 1.094ms returns FALSE
T86B4 002:015.762 JLINK_HasError()
T86B4 002:021.738 JLINK_IsHalted()
T86B4 002:022.782 - 1.104ms returns FALSE
T86B4 002:022.878 JLINK_HasError()
T86B4 002:024.881 JLINK_IsHalted()
T86B4 002:025.777 - 0.978ms returns FALSE
T86B4 002:025.903 JLINK_HasError()
T86B4 002:027.709 JLINK_IsHalted()
T86B4 002:028.691 - 1.040ms returns FALSE
T86B4 002:028.779 JLINK_HasError()
T86B4 002:030.816 JLINK_IsHalted()
T86B4 002:031.684 - 0.931ms returns FALSE
T86B4 002:031.780 JLINK_HasError()
T86B4 002:033.767 JLINK_IsHalted()
T86B4 002:034.649 - 0.960ms returns FALSE
T86B4 002:034.789 JLINK_HasError()
T86B4 002:036.777 JLINK_IsHalted()
T86B4 002:037.798 - 1.066ms returns FALSE
T86B4 002:037.872 JLINK_HasError()
T86B4 002:039.738 JLINK_IsHalted()
T86B4 002:042.823   CPU_ReadMem(2 bytes @ 0x20000000)
T86B4 002:043.793 - 4.149ms returns TRUE
T86B4 002:043.925 JLINK_ReadReg(R15 (PC))
T86B4 002:043.980 - 0.076ms returns 0x20000000
T86B4 002:044.026 JLINK_ClrBPEx(BPHandle = 0x00000008)
T86B4 002:044.071 - 0.066ms returns 0x00
T86B4 002:044.117 JLINK_ReadReg(R0)
T86B4 002:044.159 - 0.064ms returns 0x00000000
T86B4 002:044.208 JLINK_HasError()
T86B4 002:044.254 JLINK_WriteReg(R0, 0x00000002)
T86B4 002:044.300 - 0.066ms returns 0
T86B4 002:044.345 JLINK_WriteReg(R1, 0x00000140)
T86B4 002:044.387 - 0.063ms returns 0
T86B4 002:044.434 JLINK_WriteReg(R2, 0x2000010C)
T86B4 002:044.477 - 0.063ms returns 0
T86B4 002:044.521 JLINK_WriteReg(R3, 0x00000000)
T86B4 002:044.565 - 0.065ms returns 0
T86B4 002:044.610 JLINK_WriteReg(R4, 0x00000000)
T86B4 002:044.658 - 0.068ms returns 0
T86B4 002:044.702 JLINK_WriteReg(R5, 0x00000000)
T86B4 002:044.760 - 0.079ms returns 0
T86B4 002:044.806 JLINK_WriteReg(R6, 0x00000000)
T86B4 002:044.848 - 0.062ms returns 0
T86B4 002:044.894 JLINK_WriteReg(R7, 0x00000000)
T86B4 002:044.937 - 0.064ms returns 0
T86B4 002:044.981 JLINK_WriteReg(R8, 0x00000000)
T86B4 002:045.025 - 0.064ms returns 0
T86B4 002:045.070 JLINK_WriteReg(R9, 0x20000108)
T86B4 002:045.113 - 0.064ms returns 0
T86B4 002:045.159 JLINK_WriteReg(R10, 0x00000000)
T86B4 002:045.201 - 0.062ms returns 0
T86B4 002:045.246 JLINK_WriteReg(R11, 0x00000000)
T86B4 002:045.290 - 0.064ms returns 0
T86B4 002:045.335 JLINK_WriteReg(R12, 0x00000000)
T86B4 002:045.379 - 0.064ms returns 0
T86B4 002:045.423 JLINK_WriteReg(R13 (SP), 0x20002000)
T86B4 002:045.467 - 0.065ms returns 0
T86B4 002:045.513 JLINK_WriteReg(R14, 0x20000001)
T86B4 002:045.555 - 0.062ms returns 0
T86B4 002:045.600 JLINK_WriteReg(R15 (PC), 0x200000F4)
T86B4 002:045.656 - 0.092ms returns 0
T86B4 002:045.742 JLINK_WriteReg(XPSR, 0x01000000)
T86B4 002:045.804 - 0.084ms returns 0
T86B4 002:045.850 JLINK_WriteReg(MSP, 0x20002000)
T86B4 002:045.893 - 0.065ms returns 0
T86B4 002:045.939 JLINK_WriteReg(PSP, 0x20002000)
T86B4 002:045.981 - 0.063ms returns 0
T86B4 002:046.027 JLINK_WriteReg(CFBP, 0x00000000)
T86B4 002:046.071 - 0.064ms returns 0
T86B4 002:046.117 JLINK_SetBPEx(Addr = 0x20000000, Type = 0xFFFFFFF2)
T86B4 002:046.164 - 0.067ms returns 0x00000009
T86B4 002:046.209 JLINK_Go()
T86B4 002:046.268   CPU_ReadMem(4 bytes @ 0xE0001000)
T86B4 002:049.655 - 3.474ms
T86B4 002:049.696 JLINK_IsHalted()
T86B4 002:052.083   CPU_ReadMem(2 bytes @ 0x20000000)
T86B4 002:052.628 - 2.949ms returns TRUE
T86B4 002:052.661 JLINK_ReadReg(R15 (PC))
T86B4 002:052.682 - 0.029ms returns 0x20000000
T86B4 002:052.701 JLINK_ClrBPEx(BPHandle = 0x00000009)
T86B4 002:052.719 - 0.026ms returns 0x00
T86B4 002:052.738 JLINK_ReadReg(R0)
T86B4 002:052.755 - 0.025ms returns 0x00000000
T86B4 002:116.672 JLINK_WriteMem(0x20000000, 0x10C Bytes, ...)
T86B4 002:116.703   Data:  00 BE 0A E0 0D 78 2D 06 68 40 08 24 40 00 00 D3 ...
T86B4 002:116.743   CPU_WriteMem(268 bytes @ 0x20000000)
T86B4 002:118.563 - 1.904ms returns 0x10C
T86B4 002:118.620 JLINK_HasError()
T86B4 002:118.638 JLINK_WriteReg(R0, 0x08000000)
T86B4 002:118.656 - 0.025ms returns 0
T86B4 002:118.673 JLINK_WriteReg(R1, 0x016E3600)
T86B4 002:118.689 - 0.023ms returns 0
T86B4 002:118.705 JLINK_WriteReg(R2, 0x00000003)
T86B4 002:118.721 - 0.023ms returns 0
T86B4 002:118.737 JLINK_WriteReg(R3, 0x00000000)
T86B4 002:118.753 - 0.022ms returns 0
T86B4 002:118.769 JLINK_WriteReg(R4, 0x00000000)
T86B4 002:118.785 - 0.023ms returns 0
T86B4 002:118.801 JLINK_WriteReg(R5, 0x00000000)
T86B4 002:118.817 - 0.023ms returns 0
T86B4 002:118.833 JLINK_WriteReg(R6, 0x00000000)
T86B4 002:118.849 - 0.023ms returns 0
T86B4 002:118.865 JLINK_WriteReg(R7, 0x00000000)
T86B4 002:118.880 - 0.022ms returns 0
T86B4 002:118.897 JLINK_WriteReg(R8, 0x00000000)
T86B4 002:118.913 - 0.023ms returns 0
T86B4 002:118.929 JLINK_WriteReg(R9, 0x20000108)
T86B4 002:118.945 - 0.023ms returns 0
T86B4 002:118.961 JLINK_WriteReg(R10, 0x00000000)
T86B4 002:118.977 - 0.023ms returns 0
T86B4 002:118.993 JLINK_WriteReg(R11, 0x00000000)
T86B4 002:119.009 - 0.022ms returns 0
T86B4 002:119.025 JLINK_WriteReg(R12, 0x00000000)
T86B4 002:119.041 - 0.023ms returns 0
T86B4 002:119.057 JLINK_WriteReg(R13 (SP), 0x20002000)
T86B4 002:119.073 - 0.025ms returns 0
T86B4 002:119.092 JLINK_WriteReg(R14, 0x20000001)
T86B4 002:119.107 - 0.023ms returns 0
T86B4 002:119.124 JLINK_WriteReg(R15 (PC), 0x20000038)
T86B4 002:119.139 - 0.023ms returns 0
T86B4 002:119.156 JLINK_WriteReg(XPSR, 0x01000000)
T86B4 002:119.172 - 0.023ms returns 0
T86B4 002:119.188 JLINK_WriteReg(MSP, 0x20002000)
T86B4 002:119.204 - 0.023ms returns 0
T86B4 002:119.220 JLINK_WriteReg(PSP, 0x20002000)
T86B4 002:119.236 - 0.023ms returns 0
T86B4 002:119.252 JLINK_WriteReg(CFBP, 0x00000000)
T86B4 002:119.267 - 0.022ms returns 0
T86B4 002:119.284 JLINK_SetBPEx(Addr = 0x20000000, Type = 0xFFFFFFF2)
T86B4 002:119.314   CPU_ReadMem(4 bytes @ 0x20000000)
T86B4 002:119.936   CPU_WriteMem(4 bytes @ 0x20000000)
T86B4 002:120.653   CPU_ReadMem(4 bytes @ 0x20000000)
T86B4 002:121.415   CPU_WriteMem(4 bytes @ 0x20000000)
T86B4 002:122.224   CPU_ReadMem(2 bytes @ 0x20000000)
T86B4 002:123.026 - 3.757ms returns 0x0000000A
T86B4 002:123.053 JLINK_Go()
T86B4 002:123.071   CPU_WriteMem(2 bytes @ 0x20000000)
T86B4 002:123.697   CPU_ReadMem(4 bytes @ 0xE0001000)
T86B4 002:126.608 - 3.614ms
T86B4 002:126.689 JLINK_IsHalted()
T86B4 002:129.153   CPU_ReadMem(2 bytes @ 0x20000000)
T86B4 002:129.688 - 3.015ms returns TRUE
T86B4 002:129.721 JLINK_ReadReg(R15 (PC))
T86B4 002:129.742 - 0.029ms returns 0x20000000
T86B4 002:129.761 JLINK_ClrBPEx(BPHandle = 0x0000000A)
T86B4 002:129.778 - 0.026ms returns 0x00
T86B4 002:129.798 JLINK_ReadReg(R0)
T86B4 002:129.815 - 0.025ms returns 0x00000000
T86B4 002:129.835 JLINK_WriteMem(0x2000010C, 0x2F4 Bytes, ...)
T86B4 002:129.853   Data:  00 40 00 20 7D 01 00 08 B3 0B 00 08 B5 0B 00 08 ...
T86B4 002:129.882   CPU_WriteMem(756 bytes @ 0x2000010C)
T86B4 002:133.006 - 3.200ms returns 0x2F4
T86B4 002:133.054 JLINK_WriteMem(0x20000400, 0x400 Bytes, ...)
T86B4 002:133.074   Data:  19 5A 1B 68 9F ED 18 6A 9F ED 18 7A 10 B5 F7 EE ...
T86B4 002:133.109   CPU_WriteMem(1024 bytes @ 0x20000400)
T86B4 002:137.262 - 4.226ms returns 0x400
T86B4 002:137.295 JLINK_WriteMem(0x20000800, 0x400 Bytes, ...)
T86B4 002:137.312   Data:  11 B1 42 F4 80 42 B1 E7 22 F4 80 42 AE E7 4F F0 ...
T86B4 002:137.343   CPU_WriteMem(1024 bytes @ 0x20000800)
T86B4 002:141.475 - 4.199ms returns 0x400
T86B4 002:141.509 JLINK_WriteMem(0x20000C00, 0x400 Bytes, ...)
T86B4 002:141.526   Data:  FF F7 F4 FB 01 36 64 2E 27 F8 02 0B EA D1 00 20 ...
T86B4 002:141.564   CPU_WriteMem(1024 bytes @ 0x20000C00)
T86B4 002:146.001 - 4.535ms returns 0x400
T86B4 002:146.070 JLINK_WriteMem(0x20001000, 0x10C Bytes, ...)
T86B4 002:146.100   Data:  00 00 00 00 00 00 00 00 00 00 00 00 00 00 00 00 ...
T86B4 002:146.152   CPU_WriteMem(268 bytes @ 0x20001000)
T86B4 002:147.944 - 1.908ms returns 0x10C
T86B4 002:148.008 JLINK_HasError()
T86B4 002:148.065 JLINK_WriteReg(R0, 0x08000000)
T86B4 002:148.106 - 0.057ms returns 0
T86B4 002:148.142 JLINK_WriteReg(R1, 0x00001000)
T86B4 002:148.176 - 0.050ms returns 0
T86B4 002:148.303 JLINK_WriteReg(R2, 0x2000010C)
T86B4 002:148.353 - 0.072ms returns 0
T86B4 002:148.400 JLINK_WriteReg(R3, 0x00000000)
T86B4 002:148.443 - 0.063ms returns 0
T86B4 002:148.488 JLINK_WriteReg(R4, 0x00000000)
T86B4 002:148.532 - 0.065ms returns 0
T86B4 002:148.577 JLINK_WriteReg(R5, 0x00000000)
T86B4 002:148.639 - 0.076ms returns 0
T86B4 002:148.671 JLINK_WriteReg(R6, 0x00000000)
T86B4 002:148.701 - 0.046ms returns 0
T86B4 002:148.735 JLINK_WriteReg(R7, 0x00000000)
T86B4 002:148.766 - 0.045ms returns 0
T86B4 002:148.798 JLINK_WriteReg(R8, 0x00000000)
T86B4 002:148.830 - 0.048ms returns 0
T86B4 002:148.863 JLINK_WriteReg(R9, 0x20000108)
T86B4 002:148.894 - 0.045ms returns 0
T86B4 002:148.926 JLINK_WriteReg(R10, 0x00000000)
T86B4 002:148.955 - 0.045ms returns 0
T86B4 002:148.989 JLINK_WriteReg(R11, 0x00000000)
T86B4 002:149.022 - 0.048ms returns 0
T86B4 002:149.054 JLINK_WriteReg(R12, 0x00000000)
T86B4 002:149.094 - 0.054ms returns 0
T86B4 002:149.127 JLINK_WriteReg(R13 (SP), 0x20002000)
T86B4 002:149.160 - 0.048ms returns 0
T86B4 002:149.192 JLINK_WriteReg(R14, 0x20000001)
T86B4 002:149.223 - 0.047ms returns 0
T86B4 002:149.257 JLINK_WriteReg(R15 (PC), 0x200000D0)
T86B4 002:149.288 - 0.045ms returns 0
T86B4 002:149.321 JLINK_WriteReg(XPSR, 0x01000000)
T86B4 002:149.353 - 0.047ms returns 0
T86B4 002:149.385 JLINK_WriteReg(MSP, 0x20002000)
T86B4 002:149.417 - 0.047ms returns 0
T86B4 002:149.449 JLINK_WriteReg(PSP, 0x20002000)
T86B4 002:149.480 - 0.046ms returns 0
T86B4 002:149.514 JLINK_WriteReg(CFBP, 0x00000000)
T86B4 002:149.544 - 0.045ms returns 0
T86B4 002:149.577 JLINK_SetBPEx(Addr = 0x20000000, Type = 0xFFFFFFF2)
T86B4 002:149.611 - 0.055ms returns 0x0000000B
T86B4 002:149.655 JLINK_Go()
T86B4 002:149.697   CPU_ReadMem(4 bytes @ 0xE0001000)
T86B4 002:153.435 - 3.833ms
T86B4 002:153.518 JLINK_IsHalted()
T86B4 002:156.275   CPU_ReadMem(2 bytes @ 0x20000000)
T86B4 002:157.068 - 3.631ms returns TRUE
T86B4 002:157.178 JLINK_ReadReg(R15 (PC))
T86B4 002:157.225 - 0.064ms returns 0x20000000
T86B4 002:157.264 JLINK_ClrBPEx(BPHandle = 0x0000000B)
T86B4 002:157.324 - 0.081ms returns 0x00
T86B4 002:157.371 JLINK_ReadReg(R0)
T86B4 002:157.415 - 0.064ms returns 0x08001000
T86B4 002:158.357 JLINK_WriteMem(0x2000010C, 0x2F4 Bytes, ...)
T86B4 002:158.412   Data:  00 00 00 00 00 00 00 00 00 00 00 00 00 00 00 00 ...
T86B4 002:158.475   CPU_WriteMem(756 bytes @ 0x2000010C)
T86B4 002:161.995 - 3.702ms returns 0x2F4
T86B4 002:162.092 JLINK_WriteMem(0x20000400, 0x400 Bytes, ...)
T86B4 002:162.134   Data:  00 00 00 00 00 00 00 00 00 00 00 00 00 00 00 00 ...
T86B4 002:162.221   CPU_WriteMem(1024 bytes @ 0x20000400)
T86B4 002:166.632 - 4.600ms returns 0x400
T86B4 002:166.730 JLINK_WriteMem(0x20000800, 0x400 Bytes, ...)
T86B4 002:166.777   Data:  00 00 00 00 00 00 00 00 00 00 00 00 00 00 00 00 ...
T86B4 002:166.856   CPU_WriteMem(1024 bytes @ 0x20000800)
T86B4 002:171.218 - 4.545ms returns 0x400
T86B4 002:171.309 JLINK_WriteMem(0x20000C00, 0x400 Bytes, ...)
T86B4 002:171.363   Data:  00 00 00 00 00 00 00 00 00 00 00 00 00 00 00 00 ...
T86B4 002:171.462   CPU_WriteMem(1024 bytes @ 0x20000C00)
T86B4 002:175.762 - 4.514ms returns 0x400
T86B4 002:175.866 JLINK_WriteMem(0x20001000, 0x10C Bytes, ...)
T86B4 002:175.923   Data:  00 00 00 00 00 00 00 00 00 00 00 00 00 00 00 00 ...
T86B4 002:176.011   CPU_WriteMem(268 bytes @ 0x20001000)
T86B4 002:177.833 - 2.004ms returns 0x10C
T86B4 002:177.889 JLINK_HasError()
T86B4 002:177.939 JLINK_WriteReg(R0, 0x08001000)
T86B4 002:177.964 - 0.033ms returns 0
